Circuit: * C:\Program Files\LTC\LTspiceIV\examples\Educational\DCopPnt.asc

Direct Newton iteration for .op point succeeded.
Semiconductor Device Operating Points:
                        --- Bipolar Transistors ---
Name:       q3          q6          q8          q7          q2
Model:    2n3906      2n3906      2n2219a     2n2219a     2n3904
Ib:      -8.57e-06   -3.88e-06    1.13e-04    3.42e-05    1.38e-05
Ic:      -1.84e-03   -8.40e-04    2.25e-02    6.54e-03    4.49e-03
Vbe:     -6.69e-01   -6.49e-01    7.26e-01    6.92e-01    6.92e-01
Vbc:      7.94e+00    8.50e+00   -9.15e+00   -9.44e+00   -1.01e+01
Vce:     -8.61e+00   -9.15e+00    9.87e+00    1.01e+01    1.08e+01
BetaDC:   2.15e+02    2.17e+02    1.98e+02    1.91e+02    3.27e+02
Gm:       7.09e-02    3.24e-02    8.16e-01    2.48e-01    1.72e-01
Rpi:      3.02e+03    6.67e+03    2.43e+02    8.18e+02    1.88e+03
Rx:       2.00e+01    2.00e+01    1.00e+01    1.00e+01    2.00e+01
Ro:       5.86e+04    1.29e+05    3.70e+03    1.28e+04    2.45e+04
Cbe:      4.07e-11    2.69e-11    3.74e-10    1.40e-10    7.31e-11
Cbc:      2.01e-12    1.96e-12    3.03e-12    3.00e-12    1.66e-12
Cjs:      0.00e+00    0.00e+00    0.00e+00    0.00e+00    0.00e+00
BetaAC:   2.14e+02    2.16e+02    1.98e+02    2.03e+02    3.24e+02
Cbx:      0.00e+00    0.00e+00    0.00e+00    0.00e+00    0.00e+00
Ft:       2.65e+08    1.78e+08    3.44e+08    2.77e+08    3.66e+08

Name:       q1          q4          q5
Model:    2n3904      2n3904      2n3904
Ib:       1.45e-05    3.88e-06    2.22e-06
Ic:       4.71e-03    1.18e-03    7.24e-04
Vbe:      6.94e-01    6.59e-01    6.45e-01
Vbc:     -9.13e+00   -1.33e+00   -8.79e+00
Vce:      9.83e+00    1.99e+00    9.44e+00
BetaDC:   3.24e+02    3.03e+02    3.26e+02
Gm:       1.80e-01    4.54e-02    2.79e-02
Rpi:      1.78e+03    6.66e+03    1.16e+04
Rx:       2.00e+01    2.00e+01    2.00e+01
Ro:       2.32e+04    8.61e+04    1.50e+05
Cbe:      7.59e-11    2.85e-11    2.22e-11
Cbc:      1.71e-12    2.86e-12    1.73e-12
Cjs:      0.00e+00    0.00e+00    0.00e+00
BetaAC:   3.20e+02    3.02e+02    3.25e+02
Cbx:      0.00e+00    0.00e+00    0.00e+00
Ft:       3.69e+08    2.31e+08    1.86e+08



Date: Sun Apr 23 15:35:26 2017
Total elapsed time: 0.047 seconds.

tnom = 27
temp = 27
method = trap
totiter = 8
traniter = 0
tranpoints = 0
accept = 0
rejected = 0
matrix size = 39
fillins = 36
solver = Normal
Matrix Compiler1: 5.43 KB object code size
Matrix Compiler2: 4.36 KB object code size

