Title: * .step'ed log file complex data
Date: N/A
Plotname: unknown
Flags: complex forward
No. Variables: 4
No. Points: 81
Offset:   0.0000000000000000e+000
Command: Linear Technology Corporation LTspice IV
Variables:
	0	freq	step
	1	a	unknown
	2	b	unknown
	3	gain	unknown
Values:
0		1.000000000000000e-001,0.000000000000000e+000
	3.135490000000000e-007,-4.998370000000000e-003
	-5.569750000000000e-010,5.535140000000000e-008
	-9.029387299561434e+004,9.030353474943017e+002
1		1.259920000000000e-001,0.000000000000000e+000
	3.950400000000000e-007,-4.998370000000000e-003
	-7.017450000000000e-010,5.535140000000000e-008
	-9.028810080376889e+004,1.137805611553649e+003
2		1.587400000000000e-001,0.000000000000000e+000
	4.977110000000000e-007,-4.998370000000000e-003
	-8.841430000000000e-010,5.535140000000000e-008
	-9.027974876610895e+004,1.432412268440679e+003
3		2.000000000000000e-001,0.000000000000000e+000
	6.270530000000000e-007,-4.998370000000000e-003
	-1.113950000000000e-009,5.535130000000000e-008
	-9.026681573868872e+004,1.805710101601357e+003
4		2.519840000000000e-001,0.000000000000000e+000
	7.900300000000000e-007,-4.998370000000000e-003
	-1.403490000000000e-009,5.535120000000000e-008
	-9.024481339589333e+004,2.273305414465336e+003
5		3.174800000000000e-001,0.000000000000000e+000
	9.953670000000000e-007,-4.998370000000000e-003
	-1.768290000000000e-009,5.535110000000000e-008
	-9.021138277780780e+004,2.863375927676436e+003
6		4.000000000000000e-001,0.000000000000000e+000
	1.254060000000000e-006,-4.998370000000000e-003
	-2.227900000000000e-009,5.535090000000000e-008
	-9.015767921299212e+004,3.606921767235855e+003
7		5.039680000000000e-001,0.000000000000000e+000
	1.580010000000000e-006,-4.998370000000000e-003
	-2.806980000000000e-009,5.535060000000000e-008
	-9.007395083244477e+004,4.539307998575250e+003
8		6.349600000000000e-001,0.000000000000000e+000
	1.990680000000000e-006,-4.998370000000000e-003
	-3.536570000000000e-009,5.535010000000000e-008
	-8.993968514405954e+004,5.710533837723223e+003
9		8.000000000000000e-001,0.000000000000000e+000
	2.508080000000000e-006,-4.998370000000000e-003
	-4.455800000000000e-009,5.534920000000000e-008
	-8.972834102247305e+004,7.178391382328627e+003
10		1.007940000000000e+000,0.000000000000000e+000
	3.159970000000000e-006,-4.998370000000000e-003
	-5.613950000000000e-009,5.534790000000000e-008
	-8.939444275760619e+004,9.009427363607603e+003
11		1.269920000000000e+000,0.000000000000000e+000
	3.981310000000000e-006,-4.998370000000000e-003
	-7.073140000000000e-009,5.534580000000000e-008
	-8.886921897482885e+004,1.128510307993322e+004
12		1.600000000000000e+000,0.000000000000000e+000
	5.016110000000000e-006,-4.998370000000000e-003
	-8.911590000000001e-009,5.534250000000000e-008
	-8.804837187989734e+004,1.408730305330760e+004
13		2.015870000000000e+000,0.000000000000000e+000
	6.319890000000000e-006,-4.998370000000000e-003
	-1.122790000000000e-008,5.533730000000000e-008
	-8.677623767599146e+004,1.749243046514636e+004
14		2.539840000000000e+000,0.000000000000000e+000
	7.962550000000001e-006,-4.998370000000000e-003
	-1.414630000000000e-008,5.532900000000000e-008
	-8.483016869387659e+004,2.154569436183863e+004
15		3.200000000000000e+000,0.000000000000000e+000
	1.003220000000000e-005,-4.998360000000000e-003
	-1.782320000000000e-008,5.531580000000000e-008
	-8.191473427022912e+004,2.621165643479327e+004
16		4.031750000000000e+000,0.000000000000000e+000
	1.263970000000000e-005,-4.998360000000000e-003
	-2.245570000000000e-008,5.529490000000000e-008
	-7.767644629331051e+004,3.131710652742875e+004
17		5.079680000000000e+000,0.000000000000000e+000
	1.592500000000000e-005,-4.998350000000000e-003
	-2.829240000000000e-008,5.526160000000000e-008
	-7.178102835829870e+004,3.646228866579539e+004
18		6.400000000000000e+000,0.000000000000000e+000
	2.006420000000000e-005,-4.998330000000000e-003
	-3.564610000000000e-008,5.520880000000000e-008
	-6.406314180037900e+004,4.100002765078411e+004
19		8.063490000000000e+000,0.000000000000000e+000
	2.527930000000000e-005,-4.998310000000000e-003
	-4.491110000000000e-008,5.512500000000000e-008
	-5.472333868318448e+004,4.412463761350521e+004
20		1.015940000000000e+001,0.000000000000000e+000
	3.184980000000000e-005,-4.998270000000000e-003
	-5.658400000000000e-008,5.499200000000000e-008
	-4.443873933783462e+004,4.514547384297019e+004
21		1.280000000000000e+001,0.000000000000000e+000
	4.012810000000000e-005,-4.998210000000000e-003
	-7.129050000000000e-008,5.478090000000000e-008
	-3.422687720476450e+004,4.380998112578108e+004
22		1.612700000000000e+001,0.000000000000000e+000
	5.055790000000000e-005,-4.998120000000000e-003
	-8.981870000000000e-008,5.444570000000000e-008
	-2.507932586085872e+004,4.044408322512094e+004
23		2.031870000000000e+001,0.000000000000000e+000
	6.369830000000001e-005,-4.997970000000000e-003
	-1.131610000000000e-007,5.391370000000000e-008
	-1.760854527363153e+004,3.577740747927630e+004
24		2.560000000000000e+001,0.000000000000000e+000
	8.025359999999999e-005,-4.997730000000000e-003
	-1.425670000000000e-007,5.306920000000000e-008
	-1.195516952491931e+004,3.060501221330699e+004
25		3.225400000000000e+001,0.000000000000000e+000
	1.011110000000000e-004,-4.997350000000000e-003
	-1.796100000000000e-007,5.172880000000000e-008
	-7.919436633113646e+003,2.554252848128668e+004
26		4.063750000000000e+001,0.000000000000000e+000
	1.273860000000000e-004,-4.996750000000000e-003
	-2.262670000000000e-007,4.960100000000000e-008
	-5.156263109740001e+003,2.095307153915370e+004
27		5.120000000000000e+001,0.000000000000000e+000
	1.604860000000000e-004,-4.995790000000000e-003
	-2.850240000000000e-007,4.622380000000000e-008
	-3.318422579480674e+003,1.698946782079543e+004
28		6.450800000000000e+001,0.000000000000000e+000
	2.021800000000000e-004,-4.994280000000000e-003
	-3.590000000000000e-007,4.086360000000000e-008
	-2.119231369731999e+003,1.367046324615630e+004
29		8.127490000000000e+001,0.000000000000000e+000
	2.546900000000000e-004,-4.991880000000000e-003
	-4.520950000000000e-007,3.235720000000000e-008
	-1.346724204748206e+003,1.094528818105906e+004
30		1.024000000000000e+002,0.000000000000000e+000
	3.208070000000000e-004,-4.988060000000000e-003
	-5.691700000000000e-007,1.885960000000000e-008
	-8.530929317026686e+002,8.735522057647160e+003
31		1.290160000000000e+002,0.000000000000000e+000
	4.040280000000000e-004,-4.982010000000000e-003
	-7.162440000000000e-007,-2.552320000000000e-009
	-5.392976059323667e+002,6.957677383832955e+003
32		1.625500000000000e+002,0.000000000000000e+000
	5.087170000000000e-004,-4.972410000000000e-003
	-9.006790000000000e-007,-3.650620000000000e-008
	-3.404931733157471e+002,5.534516226222642e+003
33		2.048000000000000e+002,0.000000000000000e+000
	6.402900000000000e-004,-4.957180000000000e-003
	-1.131320000000000e-006,-9.031510000000000e-008
	-2.147951851433920e+002,4.398887641624849e+003
34		2.580320000000000e+002,0.000000000000000e+000
	8.054110000000000e-004,-4.933040000000000e-003
	-1.418470000000000e-006,-1.755070000000000e-007
	-1.354298310165731e+002,3.494492370589077e+003
35		3.251000000000000e+002,0.000000000000000e+000
	1.012150000000000e-003,-4.894800000000000e-003
	-1.773360000000000e-006,-3.101730000000000e-007
	-8.536408206492163e+001,2.775106333328314e+003
36		4.096000000000000e+002,0.000000000000000e+000
	1.270030000000000e-003,-4.834310000000000e-003
	-2.206800000000000e-006,-5.225210000000000e-007
	-5.379572453681308e+001,2.203386065262167e+003
37		5.160640000000000e+002,0.000000000000000e+000
	1.589770000000000e-003,-4.738780000000000e-003
	-2.725690000000000e-006,-8.560300000000000e-007
	-3.389818253515158e+001,1.749216100092202e+003
38		6.501990000000000e+002,0.000000000000000e+000
	1.982350000000000e-003,-4.588420000000000e-003
	-3.325660000000000e-006,-1.376500000000000e-006
	-2.135722065408544e+001,1.388540764075887e+003
39		8.192000000000001e+002,0.000000000000000e+000
	2.456680000000000e-003,-4.352920000000000e-003
	-3.975990000000000e-006,-2.180380000000000e-006
	-1.345479886919866e+001,1.102180296098854e+003
40		1.032130000000000e+003,0.000000000000000e+000
	3.014400000000000e-003,-3.987040000000000e-003
	-4.590350000000000e-006,-3.401140000000000e-006
	-8.477641132836936e+000,8.748520425364918e+002
41		1.300400000000000e+003,0.000000000000000e+000
	3.639530000000000e-003,-3.425890000000000e-003
	-4.973670000000000e-006,-5.203060000000000e-006
	-5.339954789050158e+000,6.943959175483777e+002
42		1.638400000000000e+003,0.000000000000000e+000
	4.278880000000000e-003,-2.583380000000000e-003
	-4.734460000000000e-006,-7.734629999999999e-006
	-3.363955975739163e+000,5.511526639083436e+002
43		2.064250000000000e+003,0.000000000000000e+000
	4.808970000000000e-003,-1.362410000000000e-003
	-3.167590000000000e-006,-1.097770000000000e-005
	-2.119508342146689e+000,4.374565288658460e+002
44		2.600800000000000e+003,0.000000000000000e+000
	4.989060000000000e-003,3.019720000000000e-004
	8.144570000000000e-007,-1.437210000000000e-005
	-1.335013921871495e+000,3.472096521798590e+002
45		3.276800000000000e+003,0.000000000000000e+000
	4.423010000000000e-003,2.327730000000000e-003
	8.397579999999999e-006,-1.607530000000000e-005
	-8.407620920878742e-001,2.755833523773690e+002
46		4.128510000000000e+003,0.000000000000000e+000
	2.621560000000000e-003,4.255350000000000e-003
	1.942570000000000e-005,-1.203240000000000e-005
	-5.294968788697405e-001,2.187301886307865e+002
47		5.201600000000000e+003,0.000000000000000e+000
	-6.028130000000000e-004,4.961460000000000e-003
	2.858560000000000e-005,3.417400000000000e-006
	-3.336025942722256e-001,1.736057871003912e+002
48		6.553600000000000e+003,0.000000000000000e+000
	-4.119510000000000e-003,2.829800000000000e-003
	2.058250000000000e-005,2.986560000000000e-005
	-2.101883455730563e-001,1.377905693740903e+002
49		8.257020000000000e+003,0.000000000000000e+000
	-4.463600000000000e-003,-2.247760000000000e-003
	-2.050380000000000e-005,4.083900000000000e-005
	-1.320864768775205e-001,1.093640747978838e+002
50		1.040320000000000e+004,0.000000000000000e+000
	1.196680000000000e-003,-4.851930000000000e-003
	-5.591020000000000e-005,-1.373280000000000e-005
	-8.317152135709675e-002,8.680101440887771e+001
51		1.310720000000000e+004,0.000000000000000e+000
	4.664170000000000e-003,1.792980000000000e-003
	2.597400000000000e-005,-6.772070000000000e-005
	-5.230540664308834e-002,6.889375794373383e+001
52		1.651400000000000e+004,0.000000000000000e+000
	-4.014150000000000e-003,2.974900000000000e-003
	5.444980000000000e-005,7.337860000000000e-005
	-3.302048440395315e-002,5.468017814577195e+001
53		2.080640000000000e+004,0.000000000000000e+000
	2.322870000000000e-003,-4.422560000000000e-003
	-1.019310000000000e-004,-5.347530000000000e-005
	-2.067830792454672e-002,4.339852314612622e+001
54		2.621440000000000e+004,0.000000000000000e+000
	-3.345370000000000e-003,3.708170000000000e-003
	1.076920000000000e-004,9.708220000000000e-005
	-1.298542321292536e-002,3.444490324282750e+001
55		3.302810000000000e+004,0.000000000000000e+000
	4.776300000000000e-003,1.452580000000000e-003
	5.308330000000000e-005,-1.747280000000000e-004
	-7.968174430003340e-003,2.733788936136277e+001
56		4.161280000000000e+004,0.000000000000000e+000
	4.108000000000000e-003,-2.831700000000000e-003
	-1.305550000000000e-004,-1.893030000000000e-004
	-5.074370364270811e-003,2.169701494462658e+001
57		5.242880000000000e+004,0.000000000000000e+000
	4.958720000000000e-003,-5.112720000000000e-004
	-2.974200000000000e-005,-2.879580000000000e-004
	-3.065543880616679e-003,1.721987494274660e+001
58		6.605610000000001e+004,0.000000000000000e+000
	-2.772000000000000e-003,4.135050000000000e-003
	3.026080000000000e-004,2.027960000000000e-004
	-1.955853035860598e-003,1.366611262652632e+001
59		8.322550000000000e+004,0.000000000000000e+000
	4.642490000000000e-003,1.768220000000000e-003
	1.630010000000000e-004,-4.280740000000000e-004
	-9.464384407453074e-004,1.084538561720722e+001
60		1.048580000000000e+005,0.000000000000000e+000
	1.008730000000000e-003,4.847790000000000e-003
	5.632960000000000e-004,-1.172440000000000e-004
	-4.956684852695934e-004,8.605973397653996e+000
61		1.321120000000000e+005,0.000000000000000e+000
	4.558890000000000e-003,-1.868570000000000e-003
	-2.736670000000000e-004,-6.675470000000000e-004
	-5.006009363499329e-004,6.829124005182960e+000
62		1.664510000000000e+005,0.000000000000000e+000
	-3.259340000000000e-003,3.647430000000000e-003
	6.731760000000001e-004,6.014440000000000e-004
	-4.728652191781226e-004,5.418636253736059e+000
63		2.097150000000000e+005,0.000000000000000e+000
	-1.919700000000000e-003,-4.448090000000000e-003
	-1.034350000000000e-003,4.463550000000000e-004
	1.726315633388525e-004,4.300460862931727e+000
64		2.642250000000000e+005,0.000000000000000e+000
	3.330500000000000e-003,3.419380000000000e-003
	1.001880000000000e-003,-9.756750000000000e-004
	2.919029251695076e-004,3.413225632439612e+000
65		3.329020000000000e+005,0.000000000000000e+000
	4.642760000000000e-003,-4.702810000000000e-004
	-1.735810000000000e-004,-1.713690000000000e-003
	4.728488831747994e-006,2.709224535213850e+000
66		4.194300000000000e+005,0.000000000000000e+000
	-3.214250000000000e-003,-3.164000000000000e-003
	-1.471790000000000e-003,1.494790000000000e-003
	2.664288285161507e-004,2.150034836120541e+000
67		5.284490000000000e+005,0.000000000000000e+000
	-4.281990000000000e-003,-2.842110000000000e-004
	-1.666740000000000e-004,2.509340000000000e-003
	8.041279017456238e-005,1.706412404612548e+000
68		6.658040000000000e+005,0.000000000000000e+000
	5.226130000000000e-004,3.966690000000000e-003
	2.930510000000000e-003,-3.854080000000000e-004
	3.118525466628644e-004,1.353623821066037e+000
69		8.388610000000000e+005,0.000000000000000e+000
	-3.621190000000000e-003,-3.838640000000000e-004
	-3.571900000000000e-004,3.369260000000000e-003
	9.379168149035822e-006,1.074773500520866e+000
70		1.056900000000000e+006,0.000000000000000e+000
	-1.038700000000000e-003,3.054440000000000e-003
	3.584350000000000e-003,1.218690000000000e-003
	-4.461974891774877e-005,8.521744311943181e-001
71		1.331610000000000e+006,0.000000000000000e+000
	9.565220000000000e-005,-2.785370000000000e-003
	-4.118260000000000e-003,-1.427890000000000e-004
	2.242822790711515e-004,6.763382915425510e-001
72		1.677720000000000e+006,0.000000000000000e+000
	-1.390130000000000e-003,1.898990000000000e-003
	3.535880000000000e-003,2.589280000000000e-003
	8.903770779209605e-005,5.369984028685249e-001
73		2.113800000000000e+006,0.000000000000000e+000
	1.830200000000000e-003,-6.747170000000000e-004
	-1.582310000000000e-003,-4.293670000000000e-003
	5.133516441147199e-005,4.262736590101179e-001
74		2.663220000000000e+006,0.000000000000000e+000
	1.116910000000000e-003,-1.137460000000000e-003
	-3.360880000000000e-003,-3.303260000000000e-003
	1.594131397814528e-004,3.382851641597161e-001
75		3.355440000000000e+006,0.000000000000000e+000
	1.106650000000000e-003,6.638680000000000e-004
	2.473990000000000e-003,-4.118500000000000e-003
	1.603313494412874e-004,2.686055133221126e-001
76		4.227590000000000e+006,0.000000000000000e+000
	-2.742300000000000e-004,1.000010000000000e-003
	4.691320000000000e-003,1.292090000000000e-003
	2.365426152101552e-004,2.130957226424625e-001
77		5.326430000000000e+006,0.000000000000000e+000
	4.005110000000000e-004,7.266760000000000e-004
	4.300140000000000e-003,-2.361090000000000e-003
	2.706989167416164e-004,1.691373195769905e-001
78		6.710890000000000e+006,0.000000000000000e+000
	-5.112100000000000e-004,-4.208260000000000e-004
	-3.140410000000000e-003,3.801260000000000e-003
	2.362531869551662e-004,1.342886561864607e-001
79		8.455190000000000e+006,0.000000000000000e+000
	5.143220000000000e-004,1.160650000000000e-004
	1.097540000000000e-003,-4.823500000000000e-003
	1.901179107526460e-004,1.065845630463571e-001
80		1.000000000000000e+007,0.000000000000000e+000
	-4.447700000000000e-004,-3.910530000000000e-005
	-4.447730000000000e-004,4.934790000000000e-003
	1.973789099199558e-004,9.011123838427226e-002
